T1A5C 000:031.537   SEGGER J-Link V6.70e Log File
T1A5C 000:031.664   DLL Compiled: Apr 17 2020 17:55:05
T1A5C 000:031.674   Logging started @ 2021-01-27 10:26
T1A5C 000:031.686 JLINK_SetWarnOutHandler(...)
T1A5C 000:031.697 - 0.015ms
T1A5C 000:031.709 JLINK_OpenEx(...)
T1A5C 000:035.057   Firmware: J-Link STLink V21 compiled Jun 26 2017 10:35:16
T1A5C 000:052.583   Hardware: V1.00
T1A5C 000:052.640   S/N: 774061943
T1A5C 000:052.657   OEM: SEGGER
T1A5C 000:052.671   Feature(s): None
T1A5C 000:058.654   TELNET listener socket opened on port 19021
T1A5C 000:059.142   WEBSRV Starting webserver
T1A5C 000:059.272   WEBSRV Webserver running on local port 19080
T1A5C 000:059.312 - 27.613ms returns "O.K."
T1A5C 000:059.345 JLINK_GetEmuCaps()
T1A5C 000:059.366 - 0.031ms returns 0x98EA5A33
T1A5C 000:059.391 JLINK_TIF_GetAvailable(...)
T1A5C 000:060.343 - 0.968ms
T1A5C 000:060.375 JLINK_SetErrorOutHandler(...)
T1A5C 000:060.392 - 0.021ms
T1A5C 000:060.416 JLINK_ExecCommand("ProjectFile = "C:\Users\Administrator\Desktop\at32f4xx\Project\AT_START_F415\MDK_v5\JLinkSettings.ini"", ...). 
T1A5C 000:075.163   Device "CORTEX-M4" selected.
T1A5C 000:075.526 - 15.127ms returns 0x00
T1A5C 000:075.568 JLINK_ExecCommand("Device = AT32F415CBT7", ...). 
T1A5C 000:075.820   Device "CORTEX-M4" selected.
T1A5C 000:076.092 - 0.514ms returns 0x00
T1A5C 000:076.111 JLINK_ExecCommand("DisableConnectionTimeout", ...). 
T1A5C 000:076.128 - 0.010ms returns 0x01
T1A5C 000:076.141 JLINK_GetHardwareVersion()
T1A5C 000:076.150 - 0.014ms returns 0x2710
T1A5C 000:076.162 JLINK_GetDLLVersion()  returns 67005
T1A5C 000:076.177 JLINK_GetFirmwareString(...)
T1A5C 000:076.187 - 0.014ms
T1A5C 000:076.214 JLINK_GetDLLVersion()  returns 67005
T1A5C 000:076.227 JLINK_GetCompileDateTime()
T1A5C 000:076.237 - 0.013ms
T1A5C 000:076.255 JLINK_GetFirmwareString(...)
T1A5C 000:076.266 - 0.015ms
T1A5C 000:076.308 JLINK_GetHardwareVersion()
T1A5C 000:076.321 - 0.017ms returns 0x2710
T1A5C 000:076.349 JLINK_TIF_Select(JLINKARM_TIF_SWD)
T1A5C 000:080.050 - 3.737ms returns 0x00
T1A5C 000:080.123 JLINK_SetSpeed(5000)
T1A5C 000:081.066 - 0.972ms
T1A5C 000:081.122 JLINK_GetId()
T1A5C 000:084.017   Found SW-DP with ID 0x4BA01477
T1A5C 000:089.814   Old FW that does not support reading DPIDR via DAP jobs
T1A5C 000:091.245   Unknown DP version. Assuming DPv0
T1A5C 000:091.304   Scanning AP map to find all available APs
T1A5C 000:093.868   AP[1]: Stopped AP scan as end of AP map has been reached
T1A5C 000:093.964   AP[0]: AHB-AP (IDR: 0x24770011)
T1A5C 000:094.007   Iterating through AP map to find AHB-AP to use
T1A5C 000:097.127   AP[0]: Core found
T1A5C 000:097.175   AP[0]: AHB-AP ROM base: 0xE00FF000
T1A5C 000:098.355   CPUID register: 0x410FC241. Implementer code: 0x41 (ARM)
T1A5C 000:098.424   Found Cortex-M4 r0p1, Little endian.
T1A5C 000:202.012    -- Max. mem block: 0x000031F8
T1A5C 000:202.123   CPU_ReadMem(4 bytes @ 0xE000EDF0)
T1A5C 000:204.460   CPU_WriteMem(4 bytes @ 0xE000EDF0)
T1A5C 000:205.869   CPU_ReadMem(4 bytes @ 0xE0002000)
T1A5C 000:207.195   FPUnit: 6 code (BP) slots and 2 literal slots
T1A5C 000:207.266   CPU_ReadMem(4 bytes @ 0xE000EDFC)
T1A5C 000:208.421   CPU_WriteMem(4 bytes @ 0xE000EDFC)
T1A5C 000:209.865   CPU_ReadMem(4 bytes @ 0xE0001000)
T1A5C 000:211.359   CPU_WriteMem(4 bytes @ 0xE0001000)
T1A5C 000:212.729   CPU_ReadMem(4 bytes @ 0xE000ED88)
T1A5C 000:213.989   CPU_WriteMem(4 bytes @ 0xE000ED88)
T1A5C 000:215.321   CPU_ReadMem(4 bytes @ 0xE000ED88)
T1A5C 000:216.656   CPU_WriteMem(4 bytes @ 0xE000ED88)
T1A5C 000:218.134   CoreSight components:
T1A5C 000:218.239   ROMTbl[0] @ E00FF000
T1A5C 000:218.285   CPU_ReadMem(64 bytes @ 0xE00FF000)
T1A5C 000:219.839   CPU_ReadMem(32 bytes @ 0xE000EFE0)
T1A5C 000:221.231   ROMTbl[0][0]: E000E000, CID: B105E00D, PID: 000BB000 SCS
T1A5C 000:221.298   CPU_ReadMem(32 bytes @ 0xE0001FE0)
T1A5C 000:222.768   ROMTbl[0][1]: E0001000, CID: B105E00D, PID: 003BB002 DWT
T1A5C 000:222.847   CPU_ReadMem(32 bytes @ 0xE0002FE0)
T1A5C 000:224.238   ROMTbl[0][2]: E0002000, CID: B105E00D, PID: 002BB003 FPB
T1A5C 000:224.375   CPU_ReadMem(32 bytes @ 0xE0000FE0)
T1A5C 000:225.856   ROMTbl[0][3]: E0000000, CID: B105E00D, PID: 003BB001 ITM
T1A5C 000:225.923   CPU_ReadMem(32 bytes @ 0xE0040FE0)
T1A5C 000:227.484   ROMTbl[0][4]: E0040000, CID: B105900D, PID: 000BB9A1 TPIU
T1A5C 000:227.575   CPU_ReadMem(32 bytes @ 0xE0041FE0)
T1A5C 000:229.208   ROMTbl[0][5]: E0041000, CID: B105900D, PID: 000BB925 ETM
T1A5C 000:230.373 - 149.288ms   returns 0x2BA01477
T1A5C 000:230.454 JLINK_GetDLLVersion()  returns 67005
T1A5C 000:230.509 JLINK_CORE_GetFound()
T1A5C 000:230.538 - 0.040ms returns 0xE0000FF
T1A5C 000:230.567 JLINK_GetDebugInfo(0x100 = JLINKARM_ROM_TABLE_ADDR_INDEX)
T1A5C 000:230.597   Value=0xE00FF000
T1A5C 000:230.630 - 0.073ms returns 0x00
T1A5C 000:230.776 JLINK_GetDebugInfo(0x100 = JLINKARM_ROM_TABLE_ADDR_INDEX)
T1A5C 000:230.829   Value=0xE00FF000
T1A5C 000:230.888 - 0.130ms returns 0x00
T1A5C 000:230.928 JLINK_GetDebugInfo(0x101 = JLINKARM_DEBUG_INFO_ETM_ADDR_INDEX)
T1A5C 000:230.954   Value=0xE0041000
T1A5C 000:230.984 - 0.066ms returns 0x00
T1A5C 000:231.019   JLINK_ReadMemEx(0xE0041FD0, 0x0020 Bytes, ..., Flags = 0x02000004)
T1A5C 000:231.082   CPU_ReadMem(32 bytes @ 0xE0041FD0)
T1A5C 000:232.445   Data:  04 00 00 00 00 00 00 00 00 00 00 00 00 00 00 00 ...
T1A5C 000:232.522 - 1.526ms returns 0x20
T1A5C 000:232.567 JLINK_GetDebugInfo(0x102 = JLINKARM_DEBUG_INFO_MTB_ADDR_INDEX)
T1A5C 000:232.598   Value=0x00000000
T1A5C 000:232.629 - 0.073ms returns 0x00
T1A5C 000:232.655 JLINK_GetDebugInfo(0x103 = JLINKARM_DEBUG_INFO_TPIU_ADDR_INDEX)
T1A5C 000:232.679   Value=0xE0040000
T1A5C 000:232.710 - 0.065ms returns 0x00
T1A5C 000:232.736 JLINK_GetDebugInfo(0x104 = JLINKARM_DEBUG_INFO_ITM_ADDR_INDEX)
T1A5C 000:232.759   Value=0xE0000000
T1A5C 000:232.791 - 0.066ms returns 0x00
T1A5C 000:232.816 JLINK_GetDebugInfo(0x105 = JLINKARM_DEBUG_INFO_DWT_ADDR_INDEX)
T1A5C 000:232.839   Value=0xE0001000
T1A5C 000:232.871 - 0.065ms returns 0x00
T1A5C 000:232.896 JLINK_GetDebugInfo(0x106 = JLINKARM_DEBUG_INFO_FPB_ADDR_INDEX)
T1A5C 000:232.919   Value=0xE0002000
T1A5C 000:232.950 - 0.065ms returns 0x00
T1A5C 000:232.976 JLINK_GetDebugInfo(0x107 = JLINKARM_DEBUG_INFO_NVIC_ADDR_INDEX)
T1A5C 000:232.999   Value=0xE000E000
T1A5C 000:233.030 - 0.065ms returns 0x00
T1A5C 000:233.055 JLINK_GetDebugInfo(0x10C = JLINKARM_DEBUG_INFO_DBG_ADDR_INDEX)
T1A5C 000:233.078   Value=0xE000EDF0
T1A5C 000:233.109 - 0.065ms returns 0x00
T1A5C 000:233.135 JLINK_GetDebugInfo(0x01 = Unknown)
T1A5C 000:233.162   Value=0x00000001
T1A5C 000:233.193 - 0.070ms returns 0x00
T1A5C 000:233.222 JLINK_ReadMemU32(0xE000ED00, 0x0001 Items, ...)
T1A5C 000:233.258   CPU_ReadMem(4 bytes @ 0xE000ED00)
T1A5C 000:234.596   Data:  41 C2 0F 41
T1A5C 000:234.676    - CPUID
T1A5C 000:234.709 - 1.497ms returns 1
T1A5C 000:234.740 JLINK_GetDebugInfo(0x10F = JLINKARM_DEBUG_INFO_HAS_CORTEX_M_SECURITY_EXT_INDEX)
T1A5C 000:234.767   Value=0x00000000
T1A5C 000:234.797 - 0.067ms returns 0x00
T1A5C 000:234.827 JLINK_SetResetType(JLINKARM_CM3_RESET_TYPE_NORMAL)
T1A5C 000:234.850 - 0.034ms returns JLINKARM_CM3_RESET_TYPE_NORMAL
T1A5C 000:234.876 JLINK_Reset()
T1A5C 000:234.924   CPU is running
T1A5C 000:234.962   CPU_WriteMem(4 bytes @ 0xE000EDF0)
T1A5C 000:236.400   CPU is running
T1A5C 000:236.489   CPU_WriteMem(4 bytes @ 0xE000EDFC)
T1A5C 000:237.766   Reset: Halt core after reset via DEMCR.VC_CORERESET.
T1A5C 000:240.098   Reset: Reset device via AIRCR.SYSRESETREQ.
T1A5C 000:240.176   CPU is running
T1A5C 000:240.229   CPU_WriteMem(4 bytes @ 0xE000ED0C)
T1A5C 000:294.765   CPU_ReadMem(4 bytes @ 0xE000EDF0)
T1A5C 000:296.346   CPU_ReadMem(4 bytes @ 0xE000EDF0)
T1A5C 000:297.863   CPU is running
T1A5C 000:297.939   CPU_WriteMem(4 bytes @ 0xE000EDF0)
T1A5C 000:299.238   CPU is running
T1A5C 000:299.312   CPU_WriteMem(4 bytes @ 0xE000EDFC)
T1A5C 000:305.411   CPU_ReadMem(4 bytes @ 0xE000EDF0)
T1A5C 000:311.659   CPU_WriteMem(4 bytes @ 0xE0002000)
T1A5C 000:313.180   CPU_ReadMem(4 bytes @ 0xE000EDFC)
T1A5C 000:314.896   CPU_ReadMem(4 bytes @ 0xE0001000)
T1A5C 000:316.349 - 81.514ms
T1A5C 000:316.525 JLINK_ReadReg(R15 (PC))
T1A5C 000:316.584 - 0.086ms returns 0x08000184
T1A5C 000:316.635 JLINK_ReadReg(XPSR)
T1A5C 000:316.672 - 0.050ms returns 0x01000000
T1A5C 000:316.700 JLINK_Halt()
T1A5C 000:316.720 - 0.030ms returns 0x00
T1A5C 000:316.744 JLINK_ReadMemU32(0xE000EDF0, 0x0001 Items, ...)
T1A5C 000:316.776   CPU_ReadMem(4 bytes @ 0xE000EDF0)
T1A5C 000:318.242   Data:  03 00 03 00
T1A5C 000:318.314    - DHCSR
T1A5C 000:318.376 - 1.645ms returns 1
T1A5C 000:318.406 JLINK_WriteU32(0xE000EDF0, 0xA05F0003)
T1A5C 000:318.429    - DHCSR
T1A5C 000:318.474   CPU_WriteMem(4 bytes @ 0xE000EDF0)
T1A5C 000:319.653 - 1.279ms returns 0
T1A5C 000:319.718 JLINK_WriteU32(0xE000EDFC, 0x01000000)
T1A5C 000:319.754    - DEMCR
T1A5C 000:319.797   CPU_WriteMem(4 bytes @ 0xE000EDFC)
T1A5C 000:322.151 - 2.467ms returns 0
T1A5C 000:322.279 JLINK_GetHWStatus(...)
T1A5C 000:323.321 - 1.070ms returns 0x00
T1A5C 000:323.420 JLINK_GetNumBPUnits(Type = 0xFFFFFF00)
T1A5C 000:323.451 - 0.041ms returns 0x06
T1A5C 000:323.475 JLINK_GetNumBPUnits(Type = 0xF0)
T1A5C 000:323.495 - 0.030ms returns 0x2000
T1A5C 000:323.518 JLINK_GetNumWPUnits()
T1A5C 000:323.537 - 0.029ms returns 0x04
T1A5C 000:323.587 JLINK_GetSpeed()
T1A5C 000:323.609 - 0.032ms returns 0xFA0
T1A5C 000:323.648 JLINK_ReadMemU32(0xE000E004, 0x0001 Items, ...)
T1A5C 000:323.684   CPU_ReadMem(4 bytes @ 0xE000E004)
T1A5C 000:324.836   Data:  02 00 00 00
T1A5C 000:324.898 - 1.267ms returns 1
T1A5C 000:324.939 JLINK_ReadMemU32(0xE000E004, 0x0001 Items, ...)
T1A5C 000:324.984   CPU_ReadMem(4 bytes @ 0xE000E004)
T1A5C 000:326.059   Data:  02 00 00 00
T1A5C 000:326.118 - 1.195ms returns 1
T1A5C 000:326.152 JLINK_WriteMemEx(0xE0001000, 0x001C Bytes, ..., Flags = 0x02000004)
T1A5C 000:326.176   Data:  01 00 00 00 00 00 00 00 00 00 00 00 00 00 00 00 ...
T1A5C 000:326.853   CPU_WriteMem(28 bytes @ 0xE0001000)
T1A5C 000:328.198 - 2.072ms returns 0x1C
T1A5C 000:328.312 JLINK_ReadReg(R15 (PC))
T1A5C 000:328.354 - 0.055ms returns 0x08000184
T1A5C 000:328.380 JLINK_ReadReg(XPSR)
T1A5C 000:328.403 - 0.033ms returns 0x01000000
T1A5C 000:346.639   JLINK_ReadMemEx(0xE0001004, 0x0004 Bytes, ..., Flags = 0x02000000)
T1A5C 000:346.719   Data:  00 00 00 00
T1A5C 000:346.748    - DWT_CYCCNT
T1A5C 000:346.772 - 0.146ms returns 0x04
T1A5C 000:422.533 JLINK_SetResetType(JLINKARM_CM3_RESET_TYPE_NORMAL)
T1A5C 000:422.578 - 0.050ms returns JLINKARM_CM3_RESET_TYPE_NORMAL
T1A5C 000:422.590 JLINK_Reset()
T1A5C 000:422.620   CPU_WriteMem(4 bytes @ 0xE000EDF0)
T1A5C 000:423.818   CPU_WriteMem(4 bytes @ 0xE000EDFC)
T1A5C 000:425.077   Reset: Halt core after reset via DEMCR.VC_CORERESET.
T1A5C 000:426.967   Reset: Reset device via AIRCR.SYSRESETREQ.
T1A5C 000:427.063   CPU_WriteMem(4 bytes @ 0xE000ED0C)
T1A5C 000:481.441   CPU_ReadMem(4 bytes @ 0xE000EDF0)
T1A5C 000:482.815   CPU_ReadMem(4 bytes @ 0xE000EDF0)
T1A5C 000:483.907   CPU_WriteMem(4 bytes @ 0xE000EDF0)
T1A5C 000:485.115   CPU_WriteMem(4 bytes @ 0xE000EDFC)
T1A5C 000:491.386   CPU_ReadMem(4 bytes @ 0xE000EDF0)
T1A5C 000:498.037   CPU_WriteMem(4 bytes @ 0xE0002000)
T1A5C 000:499.461   CPU_ReadMem(4 bytes @ 0xE000EDFC)
T1A5C 000:500.819   CPU_ReadMem(4 bytes @ 0xE0001000)
T1A5C 000:502.087 - 79.531ms
T1A5C 000:502.432 JLINK_ReadReg(R15 (PC))
T1A5C 000:502.483 - 0.066ms returns 0x08000184
T1A5C 000:502.515 JLINK_ReadReg(XPSR)
T1A5C 000:502.545 - 0.043ms returns 0x01000000
T1A5C 000:502.673 JLINK_ReadReg(R0)
T1A5C 000:502.708 - 0.050ms returns 0x00000000
T1A5C 000:502.740 JLINK_ReadReg(R1)
T1A5C 000:502.768 - 0.041ms returns 0x00000000
T1A5C 000:502.798 JLINK_ReadReg(R2)
T1A5C 000:502.826 - 0.042ms returns 0x00000000
T1A5C 000:502.857 JLINK_ReadReg(R3)
T1A5C 000:502.885 - 0.041ms returns 0x00000000
T1A5C 000:502.916 JLINK_ReadReg(R4)
T1A5C 000:502.944 - 0.041ms returns 0x00000000
T1A5C 000:502.979 JLINK_ReadMemU32(0xE0001004, 0x0001 Items, ...)
T1A5C 000:503.019   Data:  00 00 00 00
T1A5C 000:503.072    - DWT_CYCCNT
T1A5C 000:503.108 - 0.141ms returns 1
T1A5C 000:505.004   JLINK_ReadMemEx(0x08000184, 0x003C Bytes, ..., Flags = 0x02000000)
T1A5C 000:505.076   CPU_ReadMem(60 bytes @ 0x08000184)
T1A5C 000:506.599   Data:  06 48 80 47 06 48 00 47 FE E7 FE E7 FE E7 FE E7 ...
T1A5C 000:506.672 - 1.692ms returns 0x3C
T1A5C 000:506.725   JLINK_ReadMemEx(0x08000184, 0x0002 Bytes, ..., Flags = 0x02000000)
T1A5C 000:506.781   CPU_ReadMem(2 bytes @ 0x08000184)
T1A5C 000:508.071   Data:  06 48
T1A5C 000:508.141 - 1.431ms returns 0x02
T1A5C 000:508.307   JLINK_ReadMemEx(0x08000186, 0x0002 Bytes, ..., Flags = 0x02000000)
T1A5C 000:508.385   CPU_ReadMem(2 bytes @ 0x08000186)
T1A5C 000:509.535   Data:  80 47
T1A5C 000:509.616 - 1.347ms returns 0x02
T1A5C 001:249.562   JLINK_ReadMemEx(0x08000186, 0x0002 Bytes, ..., Flags = 0x02000000)
T1A5C 001:249.626   CPU_ReadMem(2 bytes @ 0x08000186)
T1A5C 001:250.653   Data:  80 47
T1A5C 001:250.674 - 1.119ms returns 0x02
T1A5C 001:250.689   JLINK_ReadMemEx(0x08000188, 0x003C Bytes, ..., Flags = 0x02000000)
T1A5C 001:250.707   CPU_ReadMem(60 bytes @ 0x08000188)
T1A5C 001:252.020   Data:  06 48 00 47 FE E7 FE E7 FE E7 FE E7 FE E7 FE E7 ...
T1A5C 001:252.051 - 1.367ms returns 0x3C
T1A5C 001:252.064   JLINK_ReadMemEx(0x08000188, 0x0002 Bytes, ..., Flags = 0x02000000)
T1A5C 001:252.082   CPU_ReadMem(2 bytes @ 0x08000188)
T1A5C 001:253.013   Data:  06 48
T1A5C 001:253.049 - 0.990ms returns 0x02
T1588 001:573.611   JLINK_ReadMemEx(0x08000184, 0x0002 Bytes, ..., Flags = 0x02000000)
T1588 001:573.703   CPU_ReadMem(2 bytes @ 0x08000184)
T1588 001:575.406   Data:  06 48
T1588 001:575.436 - 1.833ms returns 0x02
T1588 001:575.458   JLINK_SetBPEx(Addr = 0x08000464, Type = 0xFFFFFFF2)
T1588 001:575.478 - 0.026ms returns 0x00000001
T1588 001:575.493 JLINK_Go()
T1588 001:576.376   CPU_WriteMem(4 bytes @ 0xE0002000)
T1588 001:577.243   CPU_ReadMem(4 bytes @ 0xE0001000)
T1588 001:578.261   CPU_WriteMem(4 bytes @ 0xE0002008)
T1588 001:578.286   CPU_WriteMem(4 bytes @ 0xE000200C)
T1588 001:578.300   CPU_WriteMem(4 bytes @ 0xE0002010)
T1588 001:578.314   CPU_WriteMem(4 bytes @ 0xE0002014)
T1588 001:578.328   CPU_WriteMem(4 bytes @ 0xE0002018)
T1588 001:578.344   CPU_WriteMem(4 bytes @ 0xE000201C)
T1588 001:580.390   CPU_WriteMem(4 bytes @ 0xE0001004)
T1588 001:582.726 - 7.257ms
T1588 001:682.485 JLINK_IsHalted()
T1588 001:687.350 - 4.926ms returns TRUE
T1588 001:687.434 JLINK_Halt()
T1588 001:687.457 - 0.033ms returns 0x00
T1588 001:687.476 JLINK_IsHalted()
T1588 001:687.487 - 0.016ms returns TRUE
T1588 001:687.499 JLINK_IsHalted()
T1588 001:687.509 - 0.015ms returns TRUE
T1588 001:687.520 JLINK_IsHalted()
T1588 001:687.530 - 0.015ms returns TRUE
T1588 001:687.545 JLINK_ReadReg(R15 (PC))
T1588 001:687.561 - 0.021ms returns 0x08000464
T1588 001:687.573 JLINK_ReadReg(XPSR)
T1588 001:687.584 - 0.016ms returns 0x61000000
T1588 001:687.603 JLINK_ClrBPEx(BPHandle = 0x00000001)
T1588 001:687.617 - 0.018ms returns 0x00
T1588 001:687.632 JLINK_ReadMemU32(0xE000ED30, 0x0001 Items, ...)
T1588 001:687.655   CPU_ReadMem(4 bytes @ 0xE000ED30)
T1588 001:689.025   Data:  02 00 00 00
T1588 001:689.081 - 1.462ms returns 1
T1588 001:689.117 JLINK_ReadMemU32(0xE0001028, 0x0001 Items, ...)
T1588 001:689.146   CPU_ReadMem(4 bytes @ 0xE0001028)
T1588 001:690.153   Data:  00 00 00 00
T1588 001:690.204    - DWT_FUNC[0]
T1588 001:690.236 - 1.130ms returns 1
T1588 001:690.262 JLINK_ReadMemU32(0xE0001038, 0x0001 Items, ...)
T1588 001:690.291   CPU_ReadMem(4 bytes @ 0xE0001038)
T1588 001:691.279   Data:  00 02 00 00
T1588 001:691.332    - DWT_FUNC[1]
T1588 001:691.412 - 1.160ms returns 1
T1588 001:691.433 JLINK_ReadMemU32(0xE0001048, 0x0001 Items, ...)
T1588 001:691.451   CPU_ReadMem(4 bytes @ 0xE0001048)
T1588 001:692.898   Data:  00 00 00 00
T1588 001:692.970    - DWT_FUNC[2]
T1588 001:693.030 - 1.605ms returns 1
T1588 001:693.048 JLINK_ReadMemU32(0xE0001058, 0x0001 Items, ...)
T1588 001:693.065   CPU_ReadMem(4 bytes @ 0xE0001058)
T1588 001:695.033   Data:  00 00 00 00
T1588 001:695.136    - DWT_FUNC[3]
T1588 001:695.166 - 2.126ms returns 1
T1588 001:695.304 JLINK_ReadReg(R0)
T1588 001:695.325 - 0.028ms returns 0x08000465
T1588 001:695.339 JLINK_ReadReg(R1)
T1588 001:695.351 - 0.018ms returns 0x20000408
T1588 001:695.363 JLINK_ReadReg(R2)
T1588 001:695.374 - 0.016ms returns 0x00000000
T1588 001:695.386 JLINK_ReadReg(R3)
T1588 001:695.397 - 0.016ms returns 0x08000455
T1588 001:695.409 JLINK_ReadReg(R4)
T1588 001:695.420 - 0.016ms returns 0x08000498
T1588 001:695.432 JLINK_ReadReg(R5)
T1588 001:695.443 - 0.016ms returns 0x08000498
T1588 001:695.455 JLINK_ReadReg(R6)
T1588 001:695.466 - 0.016ms returns 0x00000000
T1588 001:695.478 JLINK_ReadReg(R7)
T1588 001:695.489 - 0.016ms returns 0x00000000
T1588 001:695.501 JLINK_ReadReg(R8)
T1588 001:695.512 - 0.016ms returns 0x00000000
T1588 001:695.524 JLINK_ReadReg(R9)
T1588 001:695.534 - 0.016ms returns 0x00000000
T1588 001:695.546 JLINK_ReadReg(R10)
T1588 001:695.558 - 0.016ms returns 0x00000000
T1588 001:695.569 JLINK_ReadReg(R11)
T1588 001:695.580 - 0.016ms returns 0x00000000
T1588 001:695.592 JLINK_ReadReg(R12)
T1588 001:695.603 - 0.016ms returns 0x00000000
T1588 001:695.615 JLINK_ReadReg(R13 (SP))
T1588 001:695.627 - 0.016ms returns 0x20000408
T1588 001:695.639 JLINK_ReadReg(R14)
T1588 001:695.650 - 0.016ms returns 0x080001C5
T1588 001:695.661 JLINK_ReadReg(R15 (PC))
T1588 001:695.672 - 0.016ms returns 0x08000464
T1588 001:695.684 JLINK_ReadReg(XPSR)
T1588 001:695.695 - 0.016ms returns 0x61000000
T1588 001:695.707 JLINK_ReadReg(MSP)
T1588 001:695.718 - 0.016ms returns 0x20000408
T1588 001:695.730 JLINK_ReadReg(PSP)
T1588 001:695.741 - 0.016ms returns 0x00000000
T1588 001:695.753 JLINK_ReadReg(CFBP)
T1588 001:695.764 - 0.016ms returns 0x00000000
T1588 001:695.776 JLINK_ReadReg(FPSCR)
T1588 001:702.428 - 6.684ms returns 0x00000000
T1588 001:702.484 JLINK_ReadReg(FPS0)
T1588 001:702.520 - 0.054ms returns 0x00000000
T1588 001:702.549 JLINK_ReadReg(FPS1)
T1588 001:702.561 - 0.018ms returns 0x00000000
T1588 001:702.574 JLINK_ReadReg(FPS2)
T1588 001:702.585 - 0.016ms returns 0x00000000
T1588 001:702.597 JLINK_ReadReg(FPS3)
T1588 001:702.608 - 0.016ms returns 0x00000000
T1588 001:702.620 JLINK_ReadReg(FPS4)
T1588 001:702.631 - 0.016ms returns 0x00000000
T1588 001:702.643 JLINK_ReadReg(FPS5)
T1588 001:702.654 - 0.016ms returns 0x00000000
T1588 001:702.666 JLINK_ReadReg(FPS6)
T1588 001:702.677 - 0.016ms returns 0x00000000
T1588 001:702.688 JLINK_ReadReg(FPS7)
T1588 001:702.700 - 0.016ms returns 0x00000000
T1588 001:702.711 JLINK_ReadReg(FPS8)
T1588 001:702.722 - 0.016ms returns 0x00000000
T1588 001:702.734 JLINK_ReadReg(FPS9)
T1588 001:702.745 - 0.016ms returns 0x00000000
T1588 001:702.757 JLINK_ReadReg(FPS10)
T1588 001:702.768 - 0.016ms returns 0x00000000
T1588 001:702.780 JLINK_ReadReg(FPS11)
T1588 001:702.790 - 0.016ms returns 0x00000000
T1588 001:702.802 JLINK_ReadReg(FPS12)
T1588 001:702.813 - 0.016ms returns 0x00000000
T1588 001:702.825 JLINK_ReadReg(FPS13)
T1588 001:702.836 - 0.016ms returns 0x00000000
T1588 001:702.848 JLINK_ReadReg(FPS14)
T1588 001:702.858 - 0.016ms returns 0x00000000
T1588 001:702.870 JLINK_ReadReg(FPS15)
T1588 001:702.881 - 0.016ms returns 0x00000000
T1588 001:702.893 JLINK_ReadReg(FPS16)
T1588 001:702.904 - 0.016ms returns 0x00000000
T1588 001:702.916 JLINK_ReadReg(FPS17)
T1588 001:702.927 - 0.016ms returns 0x00000000
T1588 001:702.939 JLINK_ReadReg(FPS18)
T1588 001:702.949 - 0.016ms returns 0x00000000
T1588 001:702.961 JLINK_ReadReg(FPS19)
T1588 001:702.972 - 0.016ms returns 0x00000000
T1588 001:702.984 JLINK_ReadReg(FPS20)
T1588 001:702.995 - 0.016ms returns 0x00000000
T1588 001:703.007 JLINK_ReadReg(FPS21)
T1588 001:703.017 - 0.016ms returns 0x00000000
T1588 001:703.029 JLINK_ReadReg(FPS22)
T1588 001:703.041 - 0.016ms returns 0x00000000
T1588 001:703.052 JLINK_ReadReg(FPS23)
T1588 001:703.063 - 0.016ms returns 0x00000000
T1588 001:703.075 JLINK_ReadReg(FPS24)
T1588 001:703.086 - 0.016ms returns 0x00000000
T1588 001:703.102 JLINK_ReadReg(FPS25)
T1588 001:703.116 - 0.019ms returns 0x00000000
T1588 001:703.128 JLINK_ReadReg(FPS26)
T1588 001:703.139 - 0.016ms returns 0x00000000
T1588 001:703.151 JLINK_ReadReg(FPS27)
T1588 001:703.161 - 0.016ms returns 0x00000000
T1588 001:703.173 JLINK_ReadReg(FPS28)
T1588 001:703.184 - 0.016ms returns 0x00000000
T1588 001:703.196 JLINK_ReadReg(FPS29)
T1588 001:703.207 - 0.016ms returns 0x00000000
T1588 001:703.218 JLINK_ReadReg(FPS30)
T1588 001:703.229 - 0.015ms returns 0x00000000
T1588 001:703.241 JLINK_ReadReg(FPS31)
T1588 001:703.252 - 0.016ms returns 0x00000000
T1A5C 001:708.198 JLINK_ReadMemU32(0xE0001004, 0x0001 Items, ...)
T1A5C 001:708.257   CPU_ReadMem(4 bytes @ 0xE0001004)
T1A5C 001:709.552   Data:  7D 25 00 00
T1A5C 001:709.581    - DWT_CYCCNT
T1A5C 001:709.595 - 1.402ms returns 1
T1A5C 001:713.127   JLINK_ReadMemEx(0x08000464, 0x003C Bytes, ..., Flags = 0x02000000)
T1A5C 001:713.185   CPU_ReadMem(128 bytes @ 0x08000440)
T1A5C 001:715.512    -- Updating DA cache (128 bytes @ 0x08000440)
T1A5C 001:715.555    -- Read from DA cache (60 bytes @ 0x08000464)
T1A5C 001:715.573   Data:  04 E0 03 48 00 68 40 1C 01 49 08 60 F9 E7 00 00 ...
T1A5C 001:715.589 - 2.470ms returns 0x3C
T1A5C 001:715.606   JLINK_ReadMemEx(0x08000464, 0x0002 Bytes, ..., Flags = 0x02000000)
T1A5C 001:715.627    -- Read from DA cache (2 bytes @ 0x08000464)
T1A5C 001:715.644   Data:  04 E0
T1A5C 001:715.659 - 0.060ms returns 0x02
T1A5C 001:715.675   JLINK_ReadMemEx(0x08000466, 0x0002 Bytes, ..., Flags = 0x02000000)
T1A5C 001:715.693    -- Read from DA cache (2 bytes @ 0x08000466)
T1A5C 001:715.710   Data:  03 48
T1A5C 001:715.725 - 0.056ms returns 0x02
T1588 005:273.030   JLINK_ReadMemEx(0x08000464, 0x0002 Bytes, ..., Flags = 0x02000000)
T1588 005:273.144    -- Read from DA cache (2 bytes @ 0x08000464)
T1588 005:273.184   Data:  04 E0
T1588 005:273.221 - 0.208ms returns 0x02
T1588 005:273.262   JLINK_SetBPEx(Addr = 0x08000466, Type = 0xFFFFFFF2)
T1588 005:273.305 - 0.059ms returns 0x00000002
T1588 005:273.362 JLINK_Go()
T1588 005:274.758   CPU_WriteMem(4 bytes @ 0xE0002000)
T1588 005:276.350   CPU_ReadMem(4 bytes @ 0xE0001000)
T1588 005:277.747   CPU_WriteMem(4 bytes @ 0xE0002008)
T1588 005:280.777 - 7.457ms
T1588 005:380.588 JLINK_IsHalted()
T1588 005:385.886 - 5.337ms returns TRUE
T1588 005:385.965 JLINK_Halt()
T1588 005:386.001 - 0.049ms returns 0x00
T1588 005:386.035 JLINK_IsHalted()
T1588 005:386.061 - 0.040ms returns TRUE
T1588 005:386.093 JLINK_IsHalted()
T1588 005:386.119 - 0.039ms returns TRUE
T1588 005:386.150 JLINK_IsHalted()
T1588 005:386.176 - 0.038ms returns TRUE
T1588 005:386.213 JLINK_ReadReg(R15 (PC))
T1588 005:386.247 - 0.048ms returns 0x08000466
T1588 005:386.281 JLINK_ReadReg(XPSR)
T1588 005:386.310 - 0.043ms returns 0x61000000
T1588 005:386.353 JLINK_ClrBPEx(BPHandle = 0x00000002)
T1588 005:386.384 - 0.045ms returns 0x00
T1588 005:386.424 JLINK_ReadMemU32(0xE000ED30, 0x0001 Items, ...)
T1588 005:386.466   CPU_ReadMem(4 bytes @ 0xE000ED30)
T1588 005:388.063   Data:  02 00 00 00
T1588 005:388.123 - 1.711ms returns 1
T1588 005:388.160 JLINK_ReadMemU32(0xE0001028, 0x0001 Items, ...)
T1588 005:388.201   CPU_ReadMem(4 bytes @ 0xE0001028)
T1588 005:389.365   Data:  00 00 00 00
T1588 005:389.449    - DWT_FUNC[0]
T1588 005:389.513 - 1.366ms returns 1
T1588 005:389.553 JLINK_ReadMemU32(0xE0001038, 0x0001 Items, ...)
T1588 005:389.597   CPU_ReadMem(4 bytes @ 0xE0001038)
T1588 005:390.719   Data:  00 02 00 00
T1588 005:390.803    - DWT_FUNC[1]
T1588 005:390.841 - 1.300ms returns 1
T1588 005:390.878 JLINK_ReadMemU32(0xE0001048, 0x0001 Items, ...)
T1588 005:390.922   CPU_ReadMem(4 bytes @ 0xE0001048)
T1588 005:392.466   Data:  00 00 00 00
T1588 005:392.560    - DWT_FUNC[2]
T1588 005:392.597 - 1.731ms returns 1
T1588 005:392.635 JLINK_ReadMemU32(0xE0001058, 0x0001 Items, ...)
T1588 005:392.678   CPU_ReadMem(4 bytes @ 0xE0001058)
T1588 005:394.676   Data:  00 00 00 00
T1588 005:394.741    - DWT_FUNC[3]
T1588 005:394.777 - 2.162ms returns 1
T1588 005:395.079 JLINK_ReadReg(R0)
T1588 005:395.126 - 0.061ms returns 0x08000465
T1588 005:395.158 JLINK_ReadReg(R1)
T1588 005:395.187 - 0.043ms returns 0x20000408
T1588 005:395.221 JLINK_ReadReg(R2)
T1588 005:395.250 - 0.042ms returns 0x00000000
T1588 005:395.283 JLINK_ReadReg(R3)
T1588 005:395.311 - 0.042ms returns 0x08000455
T1588 005:395.344 JLINK_ReadReg(R4)
T1588 005:395.372 - 0.042ms returns 0x08000498
T1588 005:395.405 JLINK_ReadReg(R5)
T1588 005:395.433 - 0.041ms returns 0x08000498
T1588 005:395.466 JLINK_ReadReg(R6)
T1588 005:395.496 - 0.044ms returns 0x00000000
T1588 005:395.528 JLINK_ReadReg(R7)
T1588 005:395.557 - 0.042ms returns 0x00000000
T1588 005:395.589 JLINK_ReadReg(R8)
T1588 005:395.618 - 0.042ms returns 0x00000000
T1588 005:395.650 JLINK_ReadReg(R9)
T1588 005:395.678 - 0.041ms returns 0x00000000
T1588 005:395.711 JLINK_ReadReg(R10)
T1588 005:395.739 - 0.042ms returns 0x00000000
T1588 005:395.772 JLINK_ReadReg(R11)
T1588 005:395.800 - 0.041ms returns 0x00000000
T1588 005:395.832 JLINK_ReadReg(R12)
T1588 005:395.860 - 0.041ms returns 0x00000000
T1588 005:395.892 JLINK_ReadReg(R13 (SP))
T1588 005:395.921 - 0.043ms returns 0x20000408
T1588 005:395.954 JLINK_ReadReg(R14)
T1588 005:395.982 - 0.041ms returns 0x080001C5
T1588 005:396.014 JLINK_ReadReg(R15 (PC))
T1588 005:396.043 - 0.042ms returns 0x08000466
T1588 005:396.076 JLINK_ReadReg(XPSR)
T1588 005:396.104 - 0.042ms returns 0x61000000
T1588 005:396.136 JLINK_ReadReg(MSP)
T1588 005:396.164 - 0.041ms returns 0x20000408
T1588 005:396.196 JLINK_ReadReg(PSP)
T1588 005:396.225 - 0.041ms returns 0x00000000
T1588 005:396.257 JLINK_ReadReg(CFBP)
T1588 005:396.285 - 0.041ms returns 0x00000000
T1588 005:396.317 JLINK_ReadReg(FPSCR)
T1588 005:403.169 - 6.877ms returns 0x00000000
T1588 005:403.219 JLINK_ReadReg(FPS0)
T1588 005:403.255 - 0.052ms returns 0x00000000
T1588 005:403.291 JLINK_ReadReg(FPS1)
T1588 005:403.314 - 0.032ms returns 0x00000000
T1588 005:403.334 JLINK_ReadReg(FPS2)
T1588 005:403.352 - 0.026ms returns 0x00000000
T1588 005:403.373 JLINK_ReadReg(FPS3)
T1588 005:403.391 - 0.026ms returns 0x00000000
T1588 005:403.410 JLINK_ReadReg(FPS4)
T1588 005:403.428 - 0.026ms returns 0x00000000
T1588 005:403.449 JLINK_ReadReg(FPS5)
T1588 005:403.467 - 0.026ms returns 0x00000000
T1588 005:403.489 JLINK_ReadReg(FPS6)
T1588 005:403.507 - 0.026ms returns 0x00000000
T1588 005:403.528 JLINK_ReadReg(FPS7)
T1588 005:403.546 - 0.026ms returns 0x00000000
T1588 005:403.567 JLINK_ReadReg(FPS8)
T1588 005:403.585 - 0.026ms returns 0x00000000
T1588 005:403.605 JLINK_ReadReg(FPS9)
T1588 005:403.623 - 0.026ms returns 0x00000000
T1588 005:403.643 JLINK_ReadReg(FPS10)
T1588 005:403.661 - 0.026ms returns 0x00000000
T1588 005:403.682 JLINK_ReadReg(FPS11)
T1588 005:403.700 - 0.026ms returns 0x00000000
T1588 005:403.720 JLINK_ReadReg(FPS12)
T1588 005:403.738 - 0.026ms returns 0x00000000
T1588 005:403.759 JLINK_ReadReg(FPS13)
T1588 005:403.777 - 0.026ms returns 0x00000000
T1588 005:403.798 JLINK_ReadReg(FPS14)
T1588 005:403.816 - 0.026ms returns 0x00000000
T1588 005:403.836 JLINK_ReadReg(FPS15)
T1588 005:403.855 - 0.026ms returns 0x00000000
T1588 005:403.875 JLINK_ReadReg(FPS16)
T1588 005:403.893 - 0.026ms returns 0x00000000
T1588 005:403.913 JLINK_ReadReg(FPS17)
T1588 005:403.932 - 0.026ms returns 0x00000000
T1588 005:403.952 JLINK_ReadReg(FPS18)
T1588 005:403.970 - 0.026ms returns 0x00000000
T1588 005:403.991 JLINK_ReadReg(FPS19)
T1588 005:404.009 - 0.026ms returns 0x00000000
T1588 005:404.029 JLINK_ReadReg(FPS20)
T1588 005:404.047 - 0.026ms returns 0x00000000
T1588 005:404.068 JLINK_ReadReg(FPS21)
T1588 005:404.086 - 0.026ms returns 0x00000000
T1588 005:404.107 JLINK_ReadReg(FPS22)
T1588 005:404.124 - 0.026ms returns 0x00000000
T1588 005:404.145 JLINK_ReadReg(FPS23)
T1588 005:404.163 - 0.026ms returns 0x00000000
T1588 005:404.184 JLINK_ReadReg(FPS24)
T1588 005:404.202 - 0.026ms returns 0x00000000
T1588 005:404.222 JLINK_ReadReg(FPS25)
T1588 005:404.240 - 0.026ms returns 0x00000000
T1588 005:404.265 JLINK_ReadReg(FPS26)
T1588 005:404.286 - 0.030ms returns 0x00000000
T1588 005:404.307 JLINK_ReadReg(FPS27)
T1588 005:404.325 - 0.026ms returns 0x00000000
T1588 005:404.346 JLINK_ReadReg(FPS28)
T1588 005:404.364 - 0.026ms returns 0x00000000
T1588 005:404.385 JLINK_ReadReg(FPS29)
T1588 005:404.402 - 0.026ms returns 0x00000000
T1588 005:404.423 JLINK_ReadReg(FPS30)
T1588 005:404.441 - 0.026ms returns 0x00000000
T1588 005:404.462 JLINK_ReadReg(FPS31)
T1588 005:404.479 - 0.030ms returns 0x00000000
T1A5C 005:404.734 JLINK_ReadMemU32(0xE0001004, 0x0001 Items, ...)
T1A5C 005:404.779   CPU_ReadMem(4 bytes @ 0xE0001004)
T1A5C 005:405.996   Data:  83 25 00 00
T1A5C 005:406.066    - DWT_CYCCNT
T1A5C 005:406.107 - 1.384ms returns 1
T1A5C 005:410.368   JLINK_ReadMemEx(0x08000466, 0x0002 Bytes, ..., Flags = 0x02000000)
T1A5C 005:410.456   CPU_ReadMem(64 bytes @ 0x08000440)
T1A5C 005:412.005    -- Updating DA cache (64 bytes @ 0x08000440)
T1A5C 005:412.065    -- Read from DA cache (2 bytes @ 0x08000466)
T1A5C 005:412.095   Data:  03 48
T1A5C 005:412.124 - 1.770ms returns 0x02
T1A5C 005:412.155   JLINK_ReadMemEx(0x08000468, 0x003C Bytes, ..., Flags = 0x02000000)
T1A5C 005:412.194   CPU_ReadMem(64 bytes @ 0x08000480)
T1A5C 005:413.881    -- Updating DA cache (64 bytes @ 0x08000480)
T1A5C 005:413.963    -- Read from DA cache (60 bytes @ 0x08000468)
T1A5C 005:414.002   Data:  00 68 40 1C 01 49 08 60 F9 E7 00 00 00 00 00 20 ...
T1A5C 005:414.029 - 1.885ms returns 0x3C
T1A5C 005:414.057   JLINK_ReadMemEx(0x08000468, 0x0002 Bytes, ..., Flags = 0x02000000)
T1A5C 005:414.093    -- Read from DA cache (2 bytes @ 0x08000468)
T1A5C 005:414.123   Data:  00 68
T1A5C 005:414.151 - 0.105ms returns 0x02
T1A5C 005:414.195   JLINK_ReadMemEx(0x08000468, 0x003C Bytes, ..., Flags = 0x02000000)
T1A5C 005:414.231    -- Read from DA cache (60 bytes @ 0x08000468)
T1A5C 005:414.263   Data:  00 68 40 1C 01 49 08 60 F9 E7 00 00 00 00 00 20 ...
T1A5C 005:414.290 - 0.105ms returns 0x3C
T1A5C 005:414.315   JLINK_ReadMemEx(0x08000468, 0x0002 Bytes, ..., Flags = 0x02000000)
T1A5C 005:414.347    -- Read from DA cache (2 bytes @ 0x08000468)
T1A5C 005:414.377   Data:  00 68
T1A5C 005:414.405 - 0.101ms returns 0x02
T1A5C 005:414.429   JLINK_ReadMemEx(0x0800046A, 0x0002 Bytes, ..., Flags = 0x02000000)
T1A5C 005:414.462    -- Read from DA cache (2 bytes @ 0x0800046A)
T1A5C 005:414.492   Data:  40 1C
T1A5C 005:414.524 - 0.106ms returns 0x02
T1A5C 005:414.558   JLINK_ReadMemEx(0x0800046A, 0x0002 Bytes, ..., Flags = 0x02000000)
T1A5C 005:414.593    -- Read from DA cache (2 bytes @ 0x0800046A)
T1A5C 005:414.622   Data:  40 1C
T1A5C 005:414.650 - 0.102ms returns 0x02
T1A5C 005:414.675   JLINK_ReadMemEx(0x0800046C, 0x003C Bytes, ..., Flags = 0x02000000)
T1A5C 005:414.707    -- Read from DA cache (60 bytes @ 0x0800046C)
T1A5C 005:414.739   Data:  01 49 08 60 F9 E7 00 00 00 00 00 20 98 04 00 08 ...
T1A5C 005:414.765 - 0.102ms returns 0x3C
T1A5C 005:414.790   JLINK_ReadMemEx(0x0800046C, 0x0002 Bytes, ..., Flags = 0x02000000)
T1A5C 005:414.822    -- Read from DA cache (2 bytes @ 0x0800046C)
T1A5C 005:414.851   Data:  01 49
T1A5C 005:414.878 - 0.099ms returns 0x02
T1588 006:011.224   JLINK_ReadMemEx(0x08000466, 0x0002 Bytes, ..., Flags = 0x02000000)
T1588 006:011.316    -- Read from DA cache (2 bytes @ 0x08000466)
T1588 006:011.342   Data:  03 48
T1588 006:011.366 - 0.153ms returns 0x02
T1588 006:011.393 JLINK_Step()
T1588 006:013.235    -- Read from DA cache (2 bytes @ 0x08000466)
T1588 006:013.337   CPU_ReadMem(4 bytes @ 0xE000ED18)
T1588 006:016.655   CPU_WriteMem(4 bytes @ 0xE000ED18)
T1588 006:017.966   CPU_ReadMem(4 bytes @ 0xE000ED18)
T1588 006:019.208   CPU_WriteMem(4 bytes @ 0xE000ED18)
T1588 006:020.480    -- Not simulated
T1588 006:020.585   CPU_WriteMem(4 bytes @ 0xE0002008)
T1588 006:028.180 - 16.838ms returns 0x00
T1588 006:028.268 JLINK_ReadReg(R15 (PC))
T1588 006:028.304 - 0.051ms returns 0x08000468
T1588 006:028.337 JLINK_ReadReg(XPSR)
T1588 006:028.365 - 0.042ms returns 0x61000000
T1588 006:028.505   JLINK_SetBPEx(Addr = 0x08000466, Type = 0xFFFFFFF2)
T1588 006:028.560 - 0.072ms returns 0x00000003
T1588 006:028.599 JLINK_Go()
T1588 006:028.640   CPU_WriteMem(4 bytes @ 0xE0002000)
T1588 006:030.031   CPU_ReadMem(4 bytes @ 0xE0001000)
T1588 006:031.471   CPU_WriteMem(4 bytes @ 0xE0002008)
T1588 006:035.596 - 7.032ms
T1588 006:135.600 JLINK_IsHalted()
T1588 006:140.526 - 4.965ms returns TRUE
T1588 006:140.605 JLINK_Halt()
T1588 006:140.644 - 0.052ms returns 0x00
T1588 006:140.677 JLINK_IsHalted()
T1588 006:140.705 - 0.040ms returns TRUE
T1588 006:140.737 JLINK_IsHalted()
T1588 006:140.762 - 0.038ms returns TRUE
T1588 006:140.793 JLINK_IsHalted()
T1588 006:140.819 - 0.038ms returns TRUE
T1588 006:140.856 JLINK_ReadReg(R15 (PC))
T1588 006:140.891 - 0.049ms returns 0x08000466
T1588 006:140.924 JLINK_ReadReg(XPSR)
T1588 006:140.953 - 0.043ms returns 0x01000000
T1588 006:140.996 JLINK_ClrBPEx(BPHandle = 0x00000003)
T1588 006:141.027 - 0.045ms returns 0x00
T1588 006:141.067 JLINK_ReadMemU32(0xE000ED30, 0x0001 Items, ...)
T1588 006:141.109   CPU_ReadMem(4 bytes @ 0xE000ED30)
T1588 006:142.527   Data:  02 00 00 00
T1588 006:142.596 - 1.543ms returns 1
T1588 006:142.635 JLINK_ReadMemU32(0xE0001028, 0x0001 Items, ...)
T1588 006:142.677   CPU_ReadMem(4 bytes @ 0xE0001028)
T1588 006:144.169   Data:  00 00 00 00
T1588 006:144.241    - DWT_FUNC[0]
T1588 006:144.277 - 1.654ms returns 1
T1588 006:144.314 JLINK_ReadMemU32(0xE0001038, 0x0001 Items, ...)
T1588 006:144.355   CPU_ReadMem(4 bytes @ 0xE0001038)
T1588 006:145.633   Data:  00 02 00 00
T1588 006:145.708    - DWT_FUNC[1]
T1588 006:145.766 - 1.467ms returns 1
T1588 006:145.805 JLINK_ReadMemU32(0xE0001048, 0x0001 Items, ...)
T1588 006:145.846   CPU_ReadMem(4 bytes @ 0xE0001048)
T1588 006:147.258   Data:  00 00 00 00
T1588 006:147.330    - DWT_FUNC[2]
T1588 006:147.387 - 1.599ms returns 1
T1588 006:147.427 JLINK_ReadMemU32(0xE0001058, 0x0001 Items, ...)
T1588 006:147.467   CPU_ReadMem(4 bytes @ 0xE0001058)
T1588 006:148.713   Data:  00 00 00 00
T1588 006:148.779    - DWT_FUNC[3]
T1588 006:148.815 - 1.400ms returns 1
T1588 006:149.101 JLINK_ReadReg(R0)
T1588 006:149.143 - 0.058ms returns 0x00000001
T1588 006:149.176 JLINK_ReadReg(R1)
T1588 006:149.204 - 0.042ms returns 0x20000000
T1588 006:149.235 JLINK_ReadReg(R2)
T1588 006:149.263 - 0.041ms returns 0x00000000
T1588 006:149.293 JLINK_ReadReg(R3)
T1588 006:149.322 - 0.042ms returns 0x08000455
T1588 006:149.352 JLINK_ReadReg(R4)
T1588 006:149.380 - 0.042ms returns 0x08000498
T1588 006:149.412 JLINK_ReadReg(R5)
T1588 006:149.440 - 0.042ms returns 0x08000498
T1588 006:149.470 JLINK_ReadReg(R6)
T1588 006:149.499 - 0.042ms returns 0x00000000
T1588 006:149.531 JLINK_ReadReg(R7)
T1588 006:149.560 - 0.042ms returns 0x00000000
T1588 006:149.591 JLINK_ReadReg(R8)
T1588 006:149.619 - 0.042ms returns 0x00000000
T1588 006:149.650 JLINK_ReadReg(R9)
T1588 006:149.678 - 0.042ms returns 0x00000000
T1588 006:149.709 JLINK_ReadReg(R10)
T1588 006:149.738 - 0.042ms returns 0x00000000
T1588 006:149.768 JLINK_ReadReg(R11)
T1588 006:149.796 - 0.042ms returns 0x00000000
T1588 006:149.827 JLINK_ReadReg(R12)
T1588 006:149.855 - 0.041ms returns 0x00000000
T1588 006:149.886 JLINK_ReadReg(R13 (SP))
T1588 006:149.915 - 0.043ms returns 0x20000408
T1588 006:149.945 JLINK_ReadReg(R14)
T1588 006:149.973 - 0.041ms returns 0x080001C5
T1588 006:150.004 JLINK_ReadReg(R15 (PC))
T1588 006:150.032 - 0.042ms returns 0x08000466
T1588 006:150.062 JLINK_ReadReg(XPSR)
T1588 006:150.090 - 0.041ms returns 0x01000000
T1588 006:150.121 JLINK_ReadReg(MSP)
T1588 006:150.148 - 0.041ms returns 0x20000408
T1588 006:150.179 JLINK_ReadReg(PSP)
T1588 006:150.206 - 0.041ms returns 0x00000000
T1588 006:150.236 JLINK_ReadReg(CFBP)
T1588 006:150.265 - 0.042ms returns 0x00000000
T1588 006:150.296 JLINK_ReadReg(FPSCR)
T1588 006:156.963 - 6.693ms returns 0x00000000
T1588 006:157.012 JLINK_ReadReg(FPS0)
T1588 006:157.048 - 0.052ms returns 0x00000000
T1588 006:157.083 JLINK_ReadReg(FPS1)
T1588 006:157.114 - 0.043ms returns 0x00000000
T1588 006:157.138 JLINK_ReadReg(FPS2)
T1588 006:157.156 - 0.027ms returns 0x00000000
T1588 006:157.176 JLINK_ReadReg(FPS3)
T1588 006:157.194 - 0.026ms returns 0x00000000
T1588 006:157.213 JLINK_ReadReg(FPS4)
T1588 006:157.231 - 0.026ms returns 0x00000000
T1588 006:157.250 JLINK_ReadReg(FPS5)
T1588 006:157.268 - 0.026ms returns 0x00000000
T1588 006:157.288 JLINK_ReadReg(FPS6)
T1588 006:157.305 - 0.026ms returns 0x00000000
T1588 006:157.325 JLINK_ReadReg(FPS7)
T1588 006:157.342 - 0.026ms returns 0x00000000
T1588 006:157.362 JLINK_ReadReg(FPS8)
T1588 006:157.379 - 0.026ms returns 0x00000000
T1588 006:157.399 JLINK_ReadReg(FPS9)
T1588 006:157.416 - 0.026ms returns 0x00000000
T1588 006:157.436 JLINK_ReadReg(FPS10)
T1588 006:157.454 - 0.026ms returns 0x00000000
T1588 006:157.473 JLINK_ReadReg(FPS11)
T1588 006:157.492 - 0.026ms returns 0x00000000
T1588 006:157.511 JLINK_ReadReg(FPS12)
T1588 006:157.529 - 0.026ms returns 0x00000000
T1588 006:157.548 JLINK_ReadReg(FPS13)
T1588 006:157.570 - 0.030ms returns 0x00000000
T1588 006:157.590 JLINK_ReadReg(FPS14)
T1588 006:157.607 - 0.026ms returns 0x00000000
T1588 006:157.627 JLINK_ReadReg(FPS15)
T1588 006:157.645 - 0.026ms returns 0x00000000
T1588 006:157.665 JLINK_ReadReg(FPS16)
T1588 006:157.683 - 0.026ms returns 0x00000000
T1588 006:157.702 JLINK_ReadReg(FPS17)
T1588 006:157.720 - 0.026ms returns 0x00000000
T1588 006:157.740 JLINK_ReadReg(FPS18)
T1588 006:157.758 - 0.026ms returns 0x00000000
T1588 006:157.777 JLINK_ReadReg(FPS19)
T1588 006:157.795 - 0.026ms returns 0x00000000
T1588 006:157.814 JLINK_ReadReg(FPS20)
T1588 006:157.832 - 0.026ms returns 0x00000000
T1588 006:157.851 JLINK_ReadReg(FPS21)
T1588 006:157.870 - 0.026ms returns 0x00000000
T1588 006:157.889 JLINK_ReadReg(FPS22)
T1588 006:157.907 - 0.026ms returns 0x00000000
T1588 006:157.926 JLINK_ReadReg(FPS23)
T1588 006:157.944 - 0.026ms returns 0x00000000
T1588 006:157.963 JLINK_ReadReg(FPS24)
T1588 006:157.981 - 0.026ms returns 0x00000000
T1588 006:158.001 JLINK_ReadReg(FPS25)
T1588 006:158.018 - 0.026ms returns 0x00000000
T1588 006:158.038 JLINK_ReadReg(FPS26)
T1588 006:158.056 - 0.026ms returns 0x00000000
T1588 006:158.075 JLINK_ReadReg(FPS27)
T1588 006:158.094 - 0.026ms returns 0x00000000
T1588 006:158.113 JLINK_ReadReg(FPS28)
T1588 006:158.131 - 0.026ms returns 0x00000000
T1588 006:158.151 JLINK_ReadReg(FPS29)
T1588 006:158.169 - 0.026ms returns 0x00000000
T1588 006:158.188 JLINK_ReadReg(FPS30)
T1588 006:158.206 - 0.026ms returns 0x00000000
T1588 006:158.226 JLINK_ReadReg(FPS31)
T1588 006:158.243 - 0.026ms returns 0x00000000
T1A5C 006:158.495 JLINK_ReadMemU32(0xE0001004, 0x0001 Items, ...)
T1A5C 006:158.598   CPU_ReadMem(4 bytes @ 0xE0001004)
T1A5C 006:160.143   Data:  93 25 00 00
T1A5C 006:160.217    - DWT_CYCCNT
T1A5C 006:160.254 - 1.770ms returns 1
T1588 006:712.516   JLINK_ReadMemEx(0x08000466, 0x0002 Bytes, ..., Flags = 0x02000000)
T1588 006:712.637   CPU_ReadMem(64 bytes @ 0x08000440)
T1588 006:714.368    -- Updating DA cache (64 bytes @ 0x08000440)
T1588 006:714.430    -- Read from DA cache (2 bytes @ 0x08000466)
T1588 006:714.473   Data:  03 48
T1588 006:714.509 - 2.004ms returns 0x02
T1588 006:714.544 JLINK_Step()
T1588 006:715.876    -- Read from DA cache (2 bytes @ 0x08000466)
T1588 006:715.946    -- Not simulated
T1588 006:716.010   CPU_WriteMem(4 bytes @ 0xE0002008)
T1588 006:730.301 - 15.812ms returns 0x00
T1588 006:730.394 JLINK_ReadReg(R15 (PC))
T1588 006:730.429 - 0.045ms returns 0x08000468
T1588 006:730.454 JLINK_ReadReg(XPSR)
T1588 006:730.476 - 0.031ms returns 0x01000000
T1588 006:730.511   JLINK_SetBPEx(Addr = 0x08000466, Type = 0xFFFFFFF2)
T1588 006:730.544 - 0.043ms returns 0x00000004
T1588 006:730.573 JLINK_Go()
T1588 006:730.605   CPU_WriteMem(4 bytes @ 0xE0002000)
T1588 006:732.026   CPU_ReadMem(4 bytes @ 0xE0001000)
T1588 006:733.736   CPU_WriteMem(4 bytes @ 0xE0002008)
T1588 006:737.131 - 6.599ms
T1588 006:836.641 JLINK_IsHalted()
T1588 006:841.764 - 5.189ms returns TRUE
T1588 006:841.871 JLINK_Halt()
T1588 006:841.900 - 0.041ms returns 0x00
T1588 006:841.930 JLINK_IsHalted()
T1588 006:841.956 - 0.038ms returns TRUE
T1588 006:841.986 JLINK_IsHalted()
T1588 006:842.013 - 0.039ms returns TRUE
T1588 006:842.042 JLINK_IsHalted()
T1588 006:842.068 - 0.039ms returns TRUE
T1588 006:842.104 JLINK_ReadReg(R15 (PC))
T1588 006:842.139 - 0.050ms returns 0x08000466
T1588 006:842.171 JLINK_ReadReg(XPSR)
T1588 006:842.200 - 0.043ms returns 0x01000000
T1588 006:842.245 JLINK_ClrBPEx(BPHandle = 0x00000004)
T1588 006:842.277 - 0.045ms returns 0x00
T1588 006:842.315 JLINK_ReadMemU32(0xE000ED30, 0x0001 Items, ...)
T1588 006:842.359   CPU_ReadMem(4 bytes @ 0xE000ED30)
T1588 006:844.036   Data:  02 00 00 00
T1588 006:844.135 - 1.840ms returns 1
T1588 006:844.190 JLINK_ReadMemU32(0xE0001028, 0x0001 Items, ...)
T1588 006:844.240   CPU_ReadMem(4 bytes @ 0xE0001028)
T1588 006:845.701   Data:  00 00 00 00
T1588 006:845.763    - DWT_FUNC[0]
T1588 006:845.794 - 1.615ms returns 1
T1588 006:845.829 JLINK_ReadMemU32(0xE0001038, 0x0001 Items, ...)
T1588 006:845.869   CPU_ReadMem(4 bytes @ 0xE0001038)
T1588 006:846.996   Data:  00 02 00 00
T1588 006:847.065    - DWT_FUNC[1]
T1588 006:847.097 - 1.278ms returns 1
T1588 006:847.131 JLINK_ReadMemU32(0xE0001048, 0x0001 Items, ...)
T1588 006:847.169   CPU_ReadMem(4 bytes @ 0xE0001048)
T1588 006:848.331   Data:  00 00 00 00
T1588 006:848.399    - DWT_FUNC[2]
T1588 006:848.431 - 1.311ms returns 1
T1588 006:848.463 JLINK_ReadMemU32(0xE0001058, 0x0001 Items, ...)
T1588 006:848.499   CPU_ReadMem(4 bytes @ 0xE0001058)
T1588 006:849.680   Data:  00 00 00 00
T1588 006:849.728    - DWT_FUNC[3]
T1588 006:849.759 - 1.307ms returns 1
T1588 006:850.014 JLINK_ReadReg(R0)
T1588 006:850.053 - 0.052ms returns 0x00000002
T1588 006:850.082 JLINK_ReadReg(R1)
T1588 006:850.107 - 0.037ms returns 0x20000000
T1588 006:850.134 JLINK_ReadReg(R2)
T1588 006:850.159 - 0.037ms returns 0x00000000
T1588 006:850.186 JLINK_ReadReg(R3)
T1588 006:850.210 - 0.036ms returns 0x08000455
T1588 006:850.237 JLINK_ReadReg(R4)
T1588 006:850.261 - 0.036ms returns 0x08000498
T1588 006:850.288 JLINK_ReadReg(R5)
T1588 006:850.313 - 0.037ms returns 0x08000498
T1588 006:850.340 JLINK_ReadReg(R6)
T1588 006:850.365 - 0.036ms returns 0x00000000
T1588 006:850.392 JLINK_ReadReg(R7)
T1588 006:850.416 - 0.036ms returns 0x00000000
T1588 006:850.443 JLINK_ReadReg(R8)
T1588 006:850.468 - 0.038ms returns 0x00000000
T1588 006:850.495 JLINK_ReadReg(R9)
T1588 006:850.520 - 0.036ms returns 0x00000000
T1588 006:850.549 JLINK_ReadReg(R10)
T1588 006:850.573 - 0.036ms returns 0x00000000
T1588 006:850.600 JLINK_ReadReg(R11)
T1588 006:850.625 - 0.036ms returns 0x00000000
T1588 006:850.653 JLINK_ReadReg(R12)
T1588 006:850.678 - 0.037ms returns 0x00000000
T1588 006:850.704 JLINK_ReadReg(R13 (SP))
T1588 006:850.730 - 0.037ms returns 0x20000408
T1588 006:850.757 JLINK_ReadReg(R14)
T1588 006:850.782 - 0.036ms returns 0x080001C5
T1588 006:850.808 JLINK_ReadReg(R15 (PC))
T1588 006:850.834 - 0.037ms returns 0x08000466
T1588 006:850.861 JLINK_ReadReg(XPSR)
T1588 006:850.885 - 0.036ms returns 0x01000000
T1588 006:850.912 JLINK_ReadReg(MSP)
T1588 006:850.937 - 0.036ms returns 0x20000408
T1588 006:850.964 JLINK_ReadReg(PSP)
T1588 006:850.988 - 0.036ms returns 0x00000000
T1588 006:851.015 JLINK_ReadReg(CFBP)
T1588 006:851.040 - 0.036ms returns 0x00000000
T1588 006:851.067 JLINK_ReadReg(FPSCR)
T1588 006:857.399 - 6.399ms returns 0x00000000
T1588 006:857.498 JLINK_ReadReg(FPS0)
T1588 006:857.530 - 0.050ms returns 0x00000000
T1588 006:857.563 JLINK_ReadReg(FPS1)
T1588 006:857.589 - 0.036ms returns 0x00000000
T1588 006:857.615 JLINK_ReadReg(FPS2)
T1588 006:857.640 - 0.037ms returns 0x00000000
T1588 006:857.667 JLINK_ReadReg(FPS3)
T1588 006:857.691 - 0.036ms returns 0x00000000
T1588 006:857.718 JLINK_ReadReg(FPS4)
T1588 006:857.743 - 0.036ms returns 0x00000000
T1588 006:857.769 JLINK_ReadReg(FPS5)
T1588 006:857.794 - 0.036ms returns 0x00000000
T1588 006:857.820 JLINK_ReadReg(FPS6)
T1588 006:857.860 - 0.052ms returns 0x00000000
T1588 006:857.888 JLINK_ReadReg(FPS7)
T1588 006:857.912 - 0.036ms returns 0x00000000
T1588 006:857.939 JLINK_ReadReg(FPS8)
T1588 006:857.964 - 0.036ms returns 0x00000000
T1588 006:857.990 JLINK_ReadReg(FPS9)
T1588 006:858.015 - 0.036ms returns 0x00000000
T1588 006:858.041 JLINK_ReadReg(FPS10)
T1588 006:858.066 - 0.036ms returns 0x00000000
T1588 006:858.092 JLINK_ReadReg(FPS11)
T1588 006:858.117 - 0.036ms returns 0x00000000
T1588 006:858.143 JLINK_ReadReg(FPS12)
T1588 006:858.167 - 0.036ms returns 0x00000000
T1588 006:858.194 JLINK_ReadReg(FPS13)
T1588 006:858.218 - 0.036ms returns 0x00000000
T1588 006:858.245 JLINK_ReadReg(FPS14)
T1588 006:858.269 - 0.036ms returns 0x00000000
T1588 006:858.296 JLINK_ReadReg(FPS15)
T1588 006:858.320 - 0.036ms returns 0x00000000
T1588 006:858.347 JLINK_ReadReg(FPS16)
T1588 006:858.371 - 0.036ms returns 0x00000000
T1588 006:858.398 JLINK_ReadReg(FPS17)
T1588 006:858.422 - 0.036ms returns 0x00000000
T1588 006:858.448 JLINK_ReadReg(FPS18)
T1588 006:858.473 - 0.036ms returns 0x00000000
T1588 006:858.499 JLINK_ReadReg(FPS19)
T1588 006:858.523 - 0.035ms returns 0x00000000
T1588 006:858.551 JLINK_ReadReg(FPS20)
T1588 006:858.575 - 0.035ms returns 0x00000000
T1588 006:858.601 JLINK_ReadReg(FPS21)
T1588 006:858.625 - 0.036ms returns 0x00000000
T1588 006:858.652 JLINK_ReadReg(FPS22)
T1588 006:858.676 - 0.036ms returns 0x00000000
T1588 006:858.702 JLINK_ReadReg(FPS23)
T1588 006:858.727 - 0.035ms returns 0x00000000
T1588 006:858.753 JLINK_ReadReg(FPS24)
T1588 006:858.777 - 0.035ms returns 0x00000000
T1588 006:858.803 JLINK_ReadReg(FPS25)
T1588 006:858.828 - 0.036ms returns 0x00000000
T1588 006:858.854 JLINK_ReadReg(FPS26)
T1588 006:858.878 - 0.036ms returns 0x00000000
T1588 006:858.904 JLINK_ReadReg(FPS27)
T1588 006:858.928 - 0.036ms returns 0x00000000
T1588 006:858.955 JLINK_ReadReg(FPS28)
T1588 006:858.979 - 0.036ms returns 0x00000000
T1588 006:859.005 JLINK_ReadReg(FPS29)
T1588 006:859.030 - 0.036ms returns 0x00000000
T1588 006:859.056 JLINK_ReadReg(FPS30)
T1588 006:859.080 - 0.036ms returns 0x00000000
T1588 006:859.107 JLINK_ReadReg(FPS31)
T1588 006:859.131 - 0.036ms returns 0x00000000
T1A5C 006:863.662 JLINK_ReadMemU32(0xE0001004, 0x0001 Items, ...)
T1A5C 006:863.742   CPU_ReadMem(4 bytes @ 0xE0001004)
T1A5C 006:864.938   Data:  A3 25 00 00
T1A5C 006:864.990    - DWT_CYCCNT
T1A5C 006:865.021 - 1.370ms returns 1
T1588 007:354.612   JLINK_ReadMemEx(0x08000466, 0x0002 Bytes, ..., Flags = 0x02000000)
T1588 007:354.714   CPU_ReadMem(64 bytes @ 0x08000440)
T1588 007:360.464    -- Updating DA cache (64 bytes @ 0x08000440)
T1588 007:360.535    -- Read from DA cache (2 bytes @ 0x08000466)
T1588 007:360.576   Data:  03 48
T1588 007:360.613 - 6.017ms returns 0x02
T1588 007:360.663 JLINK_Step()
T1588 007:362.281    -- Read from DA cache (2 bytes @ 0x08000466)
T1588 007:362.370    -- Not simulated
T1588 007:362.449   CPU_WriteMem(4 bytes @ 0xE0002008)
T1588 007:371.918 - 11.280ms returns 0x00
T1588 007:371.970 JLINK_ReadReg(R15 (PC))
T1588 007:371.993 - 0.033ms returns 0x08000468
T1588 007:372.014 JLINK_ReadReg(XPSR)
T1588 007:372.032 - 0.027ms returns 0x01000000
T1588 007:372.064   JLINK_SetBPEx(Addr = 0x08000466, Type = 0xFFFFFFF2)
T1588 007:372.093 - 0.039ms returns 0x00000005
T1588 007:372.118 JLINK_Go()
T1588 007:372.146   CPU_WriteMem(4 bytes @ 0xE0002000)
T1588 007:374.150   CPU_ReadMem(4 bytes @ 0xE0001000)
T1588 007:375.574   CPU_WriteMem(4 bytes @ 0xE0002008)
T1588 007:378.693 - 6.614ms
T1588 007:478.762 JLINK_IsHalted()
T1588 007:486.566 - 7.847ms returns TRUE
T1588 007:486.650 JLINK_Halt()
T1588 007:486.684 - 0.046ms returns 0x00
T1588 007:486.714 JLINK_IsHalted()
T1588 007:486.741 - 0.039ms returns TRUE
T1588 007:486.770 JLINK_IsHalted()
T1588 007:486.796 - 0.038ms returns TRUE
T1588 007:486.825 JLINK_IsHalted()
T1588 007:486.851 - 0.038ms returns TRUE
T1588 007:486.886 JLINK_ReadReg(R15 (PC))
T1588 007:486.920 - 0.049ms returns 0x08000466
T1588 007:486.960 JLINK_ReadReg(XPSR)
T1588 007:486.994 - 0.047ms returns 0x01000000
T1588 007:487.036 JLINK_ClrBPEx(BPHandle = 0x00000005)
T1588 007:487.067 - 0.045ms returns 0x00
T1588 007:487.104 JLINK_ReadMemU32(0xE000ED30, 0x0001 Items, ...)
T1588 007:487.147   CPU_ReadMem(4 bytes @ 0xE000ED30)
T1588 007:488.645   Data:  02 00 00 00
T1588 007:488.939 - 1.849ms returns 1
T1588 007:488.976 JLINK_ReadMemU32(0xE0001028, 0x0001 Items, ...)
T1588 007:489.019   CPU_ReadMem(4 bytes @ 0xE0001028)
T1588 007:490.516   Data:  00 00 00 00
T1588 007:490.598    - DWT_FUNC[0]
T1588 007:490.654 - 1.691ms returns 1
T1588 007:490.690 JLINK_ReadMemU32(0xE0001038, 0x0001 Items, ...)
T1588 007:490.732   CPU_ReadMem(4 bytes @ 0xE0001038)
T1588 007:493.059   Data:  00 02 00 00
T1588 007:493.136    - DWT_FUNC[1]
T1588 007:493.172 - 2.494ms returns 1
T1588 007:493.209 JLINK_ReadMemU32(0xE0001048, 0x0001 Items, ...)
T1588 007:493.253   CPU_ReadMem(4 bytes @ 0xE0001048)
T1588 007:494.485   Data:  00 00 00 00
T1588 007:494.559    - DWT_FUNC[2]
T1588 007:494.625 - 1.431ms returns 1
T1588 007:494.661 JLINK_ReadMemU32(0xE0001058, 0x0001 Items, ...)
T1588 007:494.701   CPU_ReadMem(4 bytes @ 0xE0001058)
T1588 007:496.106   Data:  00 00 00 00
T1588 007:496.177    - DWT_FUNC[3]
T1588 007:496.234 - 1.590ms returns 1
T1588 007:496.526 JLINK_ReadReg(R0)
T1588 007:496.569 - 0.060ms returns 0x00000003
T1588 007:496.603 JLINK_ReadReg(R1)
T1588 007:496.632 - 0.043ms returns 0x20000000
T1588 007:496.663 JLINK_ReadReg(R2)
T1588 007:496.692 - 0.213ms returns 0x00000000
T1588 007:496.906 JLINK_ReadReg(R3)
T1588 007:496.938 - 0.046ms returns 0x08000455
T1588 007:496.969 JLINK_ReadReg(R4)
T1588 007:496.998 - 0.041ms returns 0x08000498
T1588 007:497.028 JLINK_ReadReg(R5)
T1588 007:497.056 - 0.041ms returns 0x08000498
T1588 007:497.086 JLINK_ReadReg(R6)
